
T1A5C 000:455 SEGGER J-Link V4.96d Log File (0002ms, 0276ms total)
T1A5C 000:455 DLL Compiled: Jan 29 2015 11:45:37 (0002ms, 0276ms total)
T1A5C 000:455 Logging started @ 2017-03-26 00:04 (0002ms, 0276ms total)
T1A5C 000:457 JLINK_SetWarnOutHandler(...) (0000ms, 0276ms total)
T1A5C 000:457 JLINK_OpenEx(...)
Firmware: J-Link ARM V8 compiled Jan 31 2018 18:34:52
Hardware: V8.00
S/N: 20080643
Feature(s): RDI,FlashDL,FlashBP,JFlash,GDBFull  returns O.K. (0278ms, 0554ms total)
T1A5C 000:735 JLINK_SetErrorOutHandler(...) (0000ms, 0554ms total)
T1A5C 000:735 JLINK_ExecCommand("ProjectFile = "I:\stm32_project\crazepony-firmware-none-master\JLinkSettings.ini"", ...)  returns 0x00 (0002ms, 0556ms total)
T1A5C 000:737 JLINK_ExecCommand("Device = STM32F103T8", ...)Device "STM32F103T8" selected.  returns 0x00 (0002ms, 0558ms total)
T1A5C 000:739 JLINK_ExecCommand("DisableConnectionTimeout", ...)  returns 0x01 (0000ms, 0558ms total)
T1A5C 000:739 JLINK_GetHardwareVersion()  returns 0x13880 (0000ms, 0558ms total)
T1A5C 000:739 JLINK_GetDLLVersion()  returns 49604 (0000ms, 0558ms total)
T1A5C 000:739 JLINK_GetFirmwareString(...) (0000ms, 0558ms total)
T1A5C 000:740 JLINK_GetDLLVersion()  returns 49604 (0000ms, 0558ms total)
T1A5C 000:740 JLINK_GetCompileDateTime() (0000ms, 0558ms total)
T1A5C 000:741 JLINK_GetFirmwareString(...) (0000ms, 0558ms total)
T1A5C 000:741 JLINK_GetHardwareVersion()  returns 0x13880 (0000ms, 0558ms total)
T1A5C 000:743 JLINK_TIF_Select(JLINKARM_TIF_SWD)  returns 0x00 (0003ms, 0561ms total)
T1A5C 000:746 JLINK_SetSpeed(3000) (0001ms, 0562ms total)
T1A5C 000:747 JLINK_GetId() >0x108 TIF>Found SWD-DP with ID 0x1BA01477 >0x0D TIF> >0x28 TIF> >0x0D TIF> >0x28 TIF> >0x0D TIF> >0x21 TIF> >0x0D TIF> >0x28 TIF> >0x0D TIF> >0x28 TIF> >0x0D TIF> >0x28 TIF> >0x0D TIF> >0x21 TIF> >0x0D TIF> >0x21 TIF> >0x0D TIF> >0x28 TIF> >0x0D TIF> >0x21 TIF> >0x0D TIF> >0x21 TIF> >0x108 TIF>Found SWD-DP with ID 0x1BA01477 >0x0D TIF> >0x21 TIF> >0x0D TIF> >0x28 TIF> >0x0D TIF> >0x28 TIF> >0x0D TIF> >0x21 TIF> >0x0D TIF> >0x28 TIF> >0x0D TIF> >0x21 TIF> >0x0D TIF> >0x21 TIF>
 >0x0D TIF> >0x21 TIF> >0x0D TIF> >0x28 TIF> >0x0D TIF> >0x21 TIF> >0x0D TIF> >0x28 TIF> >0x0D TIF> >0x28 TIF> >0x0D TIF> >0x21 TIF> >0x0D TIF> >0x28 TIF> >0x0D TIF> >0x28 TIF> >0x0D TIF> >0x28 TIF> >0x0D TIF> >0x21 TIF> >0x0D TIF> >0x21 TIF> >0x0D TIF> >0x28 TIF> >0x0D TIF> >0x21 TIF> >0x0D TIF> >0x21 TIF>Found Cortex-M3 r1p1, Little endian. >0x0D TIF> >0x28 TIF> -- CPU_WriteMem(4 bytes @ 0xE0002000) -- CPU_ReadMem(4 bytes @ 0xE000EDF0) -- CPU_ReadMem(4 bytes @ 0xE0002000)
FPUnit: 6 code (BP) slots and 2 literal slots -- CPU_ReadMem(4 bytes @ 0xE000EDFC) -- CPU_ReadMem(4 bytes @ 0xE0001000) -- CPU_WriteMem(4 bytes @ 0xE0001000) -- CPU_ReadMem(4 bytes @ 0xE000ED88) -- CPU_WriteMem(4 bytes @ 0xE000ED88) -- CPU_ReadMem(4 bytes @ 0xE000ED88) -- CPU_WriteMem(4 bytes @ 0xE000ED88) -- CPU_ReadMem(4 bytes @ 0xE00FF010)TPIU fitted. -- CPU_ReadMem(4 bytes @ 0xE00FF014) -- CPU_ReadMem(4 bytes @ 0xE00FF018) >0x0D TIF> >0x21 TIF>  returns 0x1BA01477 (0053ms, 0615ms total)
T1A5C 000:800 JLINK_GetDLLVersion()  returns 49604 (0000ms, 0615ms total)
T1A5C 000:800 JLINK_CORE_GetFound()  returns 0x30000FF (0001ms, 0616ms total)
T1A5C 000:801 JLINK_GetDebugInfo(0x100) -- Value=0xE00FF003  returns 0x00 (0000ms, 0616ms total)
T1A5C 000:801 JLINK_ReadMem (0xE00FF000, 0x0020 Bytes, ...) -- CPU is running -- CPU_ReadMem(32 bytes @ 0xE00FF000) - Data: 03 F0 F0 FF 03 20 F0 FF 03 30 F0 FF 03 10 F0 FF ...  returns 0x00 (0001ms, 0617ms total)
T1A5C 000:802 JLINK_ReadMem (0xE000EFF0, 0x0010 Bytes, ...) -- CPU is running -- CPU_ReadMem(16 bytes @ 0xE000EFF0) - Data: 0D 00 00 00 E0 00 00 00 05 00 00 00 B1 00 00 00  returns 0x00 (0000ms, 0617ms total)
T1A5C 000:802 JLINK_ReadMem (0xE000EFD0, 0x0020 Bytes, ...) -- CPU is running -- CPU_ReadMem(32 bytes @ 0xE000EFD0) - Data: 04 00 00 00 00 00 00 00 00 00 00 00 00 00 00 00 ...  returns 0x00 (0001ms, 0618ms total)
T1A5C 000:803 JLINK_ReadMem (0xE0001FF0, 0x0010 Bytes, ...) -- CPU is running -- CPU_ReadMem(16 bytes @ 0xE0001FF0) - Data: 0D 00 00 00 E0 00 00 00 05 00 00 00 B1 00 00 00  returns 0x00 (0001ms, 0619ms total)
T1A5C 000:804 JLINK_ReadMem (0xE0001FD0, 0x0020 Bytes, ...) -- CPU is running -- CPU_ReadMem(32 bytes @ 0xE0001FD0) - Data: 04 00 00 00 00 00 00 00 00 00 00 00 00 00 00 00 ...  returns 0x00 (0002ms, 0621ms total)
T1A5C 000:806 JLINK_ReadMem (0xE0002FF0, 0x0010 Bytes, ...) -- CPU is running -- CPU_ReadMem(16 bytes @ 0xE0002FF0) - Data: 0D 00 00 00 E0 00 00 00 05 00 00 00 B1 00 00 00  returns 0x00 (0001ms, 0622ms total)
T1A5C 000:807 JLINK_ReadMem (0xE0002FD0, 0x0020 Bytes, ...) -- CPU is running -- CPU_ReadMem(32 bytes @ 0xE0002FD0) - Data: 04 00 00 00 00 00 00 00 00 00 00 00 00 00 00 00 ...  returns 0x00 (0001ms, 0623ms total)
T1A5C 000:808 JLINK_ReadMem (0xE0000FF0, 0x0010 Bytes, ...) -- CPU is running -- CPU_ReadMem(16 bytes @ 0xE0000FF0) - Data: 0D 00 00 00 E0 00 00 00 05 00 00 00 B1 00 00 00  returns 0x00 (0001ms, 0624ms total)
T1A5C 000:809 JLINK_ReadMem (0xE0000FD0, 0x0020 Bytes, ...) -- CPU is running -- CPU_ReadMem(32 bytes @ 0xE0000FD0) - Data: 04 00 00 00 00 00 00 00 00 00 00 00 00 00 00 00 ...  returns 0x00 (0001ms, 0625ms total)
T1A5C 000:810 JLINK_ReadMem (0xE0040FF0, 0x0010 Bytes, ...) -- CPU is running -- CPU_ReadMem(16 bytes @ 0xE0040FF0) - Data: 0D 00 00 00 90 00 00 00 05 00 00 00 B1 00 00 00  returns 0x00 (0002ms, 0627ms total)
T1A5C 000:812 JLINK_ReadMem (0xE0040FD0, 0x0020 Bytes, ...) -- CPU is running -- CPU_ReadMem(32 bytes @ 0xE0040FD0) - Data: 04 00 00 00 00 00 00 00 00 00 00 00 00 00 00 00 ...  returns 0x00 (0001ms, 0628ms total)
T1A5C 000:813 JLINK_ReadMemU32(0xE000ED00, 0x0001 Items, ...) -- CPU is running -- CPU_ReadMem(4 bytes @ 0xE000ED00) - Data: 31 C2 1F 41  returns 0x01 (0001ms, 0629ms total)
T1A5C 000:814 JLINK_SetResetType(JLINKARM_RESET_TYPE_NORMAL)  returns JLINKARM_RESET_TYPE_NORMAL (0000ms, 0629ms total)
T1A5C 000:814 JLINK_Reset() -- CPU_WriteMem(4 bytes @ 0xE0002000) -- CPU_ReadMem(4 bytes @ 0xE000EDFC) -- CPU_WriteMem(4 bytes @ 0xE000EDFC) -- CPU_ReadMem(4 bytes @ 0xE0001000) (0018ms, 0647ms total)
T1A5C 000:832 JLINK_ReadReg(R15 (PC))  returns 0x080003CC (0000ms, 0647ms total)
T1A5C 000:832 JLINK_ReadReg(XPSR)  returns 0x01000000 (0000ms, 0647ms total)
T1A5C 000:832 JLINK_Halt()  returns 0x00 (0000ms, 0647ms total)
T1A5C 000:832 JLINK_IsHalted()  returns TRUE (0000ms, 0647ms total)
T1A5C 000:832 JLINK_ReadMemU32(0xE000EDF0, 0x0001 Items, ...) -- CPU_ReadMem(4 bytes @ 0xE000EDF0) - Data: 03 00 03 00  returns 0x01 (0001ms, 0648ms total)
T1A5C 000:833 JLINK_WriteU32(0xE000EDF0, 0xA05F0003) -- CPU_WriteMem(4 bytes @ 0xE000EDF0)  returns 0x00 (0000ms, 0648ms total)
T1A5C 000:833 JLINK_WriteU32(0xE000EDFC, 0x01000000) -- CPU_WriteMem(4 bytes @ 0xE000EDFC)  returns 0x00 (0002ms, 0650ms total)
T1A5C 000:835 JLINK_GetHWStatus(...)  returns 0x00 (0000ms, 0650ms total)
T1A5C 000:836 JLINK_GetNumBPUnits(Type = 0xFFFFFF00)  returns 0x06 (0000ms, 0650ms total)
T1A5C 000:836 JLINK_GetNumBPUnits(Type = 0xF0)  returns 0x2000 (0000ms, 0650ms total)
T1A5C 000:836 JLINK_GetNumWPUnits()  returns 0x04 (0000ms, 0650ms total)
T1A5C 000:836 JLINK_GetSpeed()  returns 0x7D0 (0000ms, 0650ms total)
T1A5C 000:836 JLINK_ReadMemU32(0xE000E004, 0x0001 Items, ...) -- CPU_ReadMem(4 bytes @ 0xE000E004) - Data: 01 00 00 00  returns 0x01 (0001ms, 0651ms total)
T1A5C 000:837 JLINK_ReadMemU32(0xE000E004, 0x0001 Items, ...) -- CPU_ReadMem(4 bytes @ 0xE000E004) - Data: 01 00 00 00  returns 0x01 (0001ms, 0652ms total)
T1A5C 000:838 JLINK_WriteMem(0xE0001000, 0x001C Bytes, ...) - Data: 01 00 00 00 00 00 00 00 00 00 00 00 00 00 00 00 ... -- CPU_WriteMem(28 bytes @ 0xE0001000)  returns 0x1C (0001ms, 0653ms total)
T1A5C 000:839 JLINK_ReadMem (0xE0001000, 0x001C Bytes, ...) -- CPU_ReadMem(28 bytes @ 0xE0001000) - Data: 01 00 00 40 00 00 00 00 00 00 00 00 00 00 00 00 ...  returns 0x00 (0001ms, 0654ms total)
T1A5C 000:840 JLINK_ReadReg(R15 (PC))  returns 0x080003CC (0000ms, 0654ms total)
T1A5C 000:840 JLINK_ReadReg(XPSR)  returns 0x01000000 (0000ms, 0654ms total)
T1A5C 001:054 JLINK_SetResetType(JLINKARM_RESET_TYPE_NORMAL)  returns JLINKARM_RESET_TYPE_NORMAL (0000ms, 0654ms total)
T1A5C 001:054 JLINK_Reset() -- CPU_WriteMem(4 bytes @ 0xE0002000) -- CPU_ReadMem(4 bytes @ 0xE000EDFC) -- CPU_WriteMem(4 bytes @ 0xE000EDFC) -- CPU_ReadMem(4 bytes @ 0xE0001000) (0020ms, 0674ms total)
T1A5C 001:074 JLINK_ReadReg(R15 (PC))  returns 0x080003CC (0001ms, 0675ms total)
T1A5C 001:075 JLINK_ReadReg(XPSR)  returns 0x01000000 (0000ms, 0675ms total)
T1A5C 001:076 JLINK_ReadMem (0x080003CC, 0x0034 Bytes, ...) -- CPU_ReadMem(64 bytes @ 0x080003C0) -- Updating C cache (64 bytes @ 0x080003C0) -- Read from C cache (52 bytes @ 0x080003CC) - Data: 09 48 80 47 09 48 00 47 FE E7 FE E7 FE E7 FE E7 ...  returns 0x00 (0002ms, 0677ms total)
T1A5C 001:078 JLINK_ReadMem (0x08000400, 0x0008 Bytes, ...) -- CPU_ReadMem(64 bytes @ 0x08000400) -- Updating C cache (64 bytes @ 0x08000400) -- Read from C cache (8 bytes @ 0x08000400) - Data: B0 15 00 20 B0 11 00 20  returns 0x00 (0002ms, 0679ms total)
T1A5C 001:704 JLINK_ReadMem (0x00000000, 0x002E Bytes, ...) -- CPU_ReadMem(4 bytes @ 0x00000004) -- CPU_ReadMem(64 bytes @ 0x08000000) -- Updating C cache (64 bytes @ 0x08000000) -- Read from C cache (46 bytes @ 0x08000000) - Data: B0 15 00 20 CD 03 00 08 F9 31 00 08 FB 31 00 08 ...  returns 0x00 (0002ms, 0681ms total)
T1A5C 002:152 JLINK_ReadMem (0x20000D78, 0x0004 Bytes, ...) -- CPU_ReadMem(64 bytes @ 0x20000D40) -- Updating C cache (64 bytes @ 0x20000D40) -- Read from C cache (4 bytes @ 0x20000D78) - Data: 00 00 00 00  returns 0x00 (0002ms, 0683ms total)
T1A5C 002:157 JLINK_ReadMem (0x20000048, 0x0005 Bytes, ...) -- CPU_ReadMem(64 bytes @ 0x20000040) -- Updating C cache (64 bytes @ 0x20000040) -- Read from C cache (5 bytes @ 0x20000048) - Data: 34 C3 10 10 00  returns 0x00 (0001ms, 0684ms total)
T1444 002:208 JLINK_SetBPEx(Addr = 0x08002FA0, Type = 0xFFFFFFF2)  returns 0x00000001 (0000ms, 0684ms total)
T1444 002:208 JLINK_Go() -- CPU_WriteMem(4 bytes @ 0xE0002000) -- CPU_WriteMem(4 bytes @ 0xE0002008) -- CPU_WriteMem(4 bytes @ 0xE000200C) -- CPU_WriteMem(4 bytes @ 0xE0002010) -- CPU_WriteMem(4 bytes @ 0xE0002014) -- CPU_WriteMem(4 bytes @ 0xE0002018) -- CPU_WriteMem(4 bytes @ 0xE000201C) -- CPU_WriteMem(4 bytes @ 0xE0001004) (0006ms, 0690ms total)
T1444 002:315 JLINK_IsHalted()  returns TRUE (0003ms, 0693ms total)
T1444 002:318 JLINK_Halt()  returns 0x00 (0000ms, 0690ms total)
T1444 002:318 JLINK_IsHalted()  returns TRUE (0000ms, 0690ms total)
T1444 002:318 JLINK_IsHalted()  returns TRUE (0000ms, 0690ms total)
T1444 002:318 JLINK_IsHalted()  returns TRUE (0000ms, 0690ms total)
T1444 002:318 JLINK_ReadReg(R15 (PC))  returns 0x08002FA0 (0000ms, 0690ms total)
T1444 002:318 JLINK_ReadReg(XPSR)  returns 0x61000000 (0000ms, 0690ms total)
T1444 002:318 JLINK_ClrBPEx(BPHandle = 0x00000001)  returns 0x00 (0000ms, 0690ms total)
T1444 002:318 JLINK_ReadMemU32(0xE000ED30, 0x0001 Items, ...) -- CPU_ReadMem(4 bytes @ 0xE000ED30) - Data: 03 00 00 00  returns 0x01 (0001ms, 0691ms total)
T1444 002:319 JLINK_ReadMemU32(0xE0001028, 0x0001 Items, ...) -- CPU_ReadMem(4 bytes @ 0xE0001028) - Data: 00 00 00 00  returns 0x01 (0006ms, 0697ms total)
T1444 002:325 JLINK_ReadMemU32(0xE0001038, 0x0001 Items, ...) -- CPU_ReadMem(4 bytes @ 0xE0001038) - Data: 00 02 00 00  returns 0x01 (0000ms, 0697ms total)
T1444 002:325 JLINK_ReadMemU32(0xE0001048, 0x0001 Items, ...) -- CPU_ReadMem(4 bytes @ 0xE0001048) - Data: 00 00 00 00  returns 0x01 (0000ms, 0697ms total)
T1444 002:325 JLINK_ReadMemU32(0xE0001058, 0x0001 Items, ...) -- CPU_ReadMem(4 bytes @ 0xE0001058) - Data: 00 00 00 00  returns 0x01 (0001ms, 0698ms total)
T1444 002:326 JLINK_ReadReg(R0)  returns 0x20000FB0 (0000ms, 0698ms total)
T1444 002:326 JLINK_ReadReg(R1)  returns 0x200011B0 (0000ms, 0698ms total)
T1444 002:326 JLINK_ReadReg(R2)  returns 0x200011B0 (0000ms, 0698ms total)
T1444 002:326 JLINK_ReadReg(R3)  returns 0x200011B0 (0000ms, 0698ms total)
T1444 002:326 JLINK_ReadReg(R4)  returns 0x00000000 (0000ms, 0698ms total)
T1444 002:326 JLINK_ReadReg(R5)  returns 0x20000F50 (0000ms, 0698ms total)
T1444 002:326 JLINK_ReadReg(R6)  returns 0x00000000 (0000ms, 0698ms total)
T1444 002:326 JLINK_ReadReg(R7)  returns 0x00000000 (0000ms, 0698ms total)
T1444 002:326 JLINK_ReadReg(R8)  returns 0x00000000 (0000ms, 0698ms total)
T1444 002:326 JLINK_ReadReg(R9)  returns 0x20000160 (0000ms, 0698ms total)
T1444 002:326 JLINK_ReadReg(R10)  returns 0x0800E614 (0000ms, 0698ms total)
T1444 002:327 JLINK_ReadReg(R11)  returns 0x00000000 (0000ms, 0698ms total)
T1444 002:327 JLINK_ReadReg(R12)  returns 0x20000F90 (0000ms, 0698ms total)
T1444 002:327 JLINK_ReadReg(R13 (SP))  returns 0x200015B0 (0000ms, 0698ms total)
T1444 002:327 JLINK_ReadReg(R14)  returns 0x080001DD (0000ms, 0698ms total)
T1444 002:327 JLINK_ReadReg(R15 (PC))  returns 0x08002FA0 (0000ms, 0698ms total)
T1444 002:327 JLINK_ReadReg(XPSR)  returns 0x61000000 (0000ms, 0698ms total)
T1444 002:327 JLINK_ReadReg(MSP)  returns 0x200015B0 (0000ms, 0698ms total)
T1444 002:327 JLINK_ReadReg(PSP)  returns 0x20001000 (0000ms, 0698ms total)
T1444 002:327 JLINK_ReadReg(CFBP)  returns 0x00000000 (0000ms, 0698ms total)
T1A5C 002:331 JLINK_ReadMemU32(0xE0001004, 0x0001 Items, ...) -- CPU_ReadMem(4 bytes @ 0xE0001004) - Data: 60 44 00 00  returns 0x01 (0000ms, 0698ms total)
T1A5C 002:333 JLINK_ReadMem (0x08002FA0, 0x003C Bytes, ...) -- CPU_ReadMem(128 bytes @ 0x08002F80) -- Updating C cache (128 bytes @ 0x08002F80) -- Read from C cache (60 bytes @ 0x08002FA0) - Data: 09 20 00 F0 E5 F9 00 F0 33 F9 81 48 00 68 4F F4 ...  returns 0x00 (0003ms, 0701ms total)
T1444 004:333 JLINK_Step() -- Read from C cache (2 bytes @ 0x08002FA0) -- Simulated  returns 0x00 (0001ms, 0702ms total)
T1444 004:334 JLINK_ReadReg(R15 (PC))  returns 0x08002FA2 (0000ms, 0702ms total)
T1444 004:334 JLINK_ReadReg(XPSR)  returns 0x21000000 (0000ms, 0702ms total)
T1444 004:334 JLINK_SetBPEx(Addr = 0x08002FA6, Type = 0xFFFFFFF2)  returns 0x00000002 (0000ms, 0702ms total)
T1444 004:334 JLINK_SetBPEx(Addr = 0x08002FA0, Type = 0xFFFFFFF2)  returns 0x00000003 (0000ms, 0702ms total)
T1444 004:334 JLINK_Go() -- CPU_WriteMem(4 bytes @ 0xE0002000) -- CPU_WriteMem(4 bytes @ 0xE0002000) -- CPU_WriteMem(4 bytes @ 0xE0002008) -- CPU_WriteMem(4 bytes @ 0xE000200C) -- CPU_WriteMem(4 bytes @ 0xE0001004) (0005ms, 0707ms total)
T1444 004:440 JLINK_IsHalted()  returns TRUE (0004ms, 0711ms total)
T1444 004:444 JLINK_Halt()  returns 0x00 (0000ms, 0707ms total)
T1444 004:445 JLINK_IsHalted()  returns TRUE (0000ms, 0707ms total)
T1444 004:445 JLINK_IsHalted()  returns TRUE (0000ms, 0707ms total)
T1444 004:445 JLINK_IsHalted()  returns TRUE (0000ms, 0707ms total)
T1444 004:445 JLINK_ReadReg(R15 (PC))  returns 0x08002FA6 (0000ms, 0707ms total)
T1444 004:445 JLINK_ReadReg(XPSR)  returns 0x01000000 (0000ms, 0707ms total)
T1444 004:445 JLINK_ClrBPEx(BPHandle = 0x00000002)  returns 0x00 (0000ms, 0707ms total)
T1444 004:445 JLINK_ClrBPEx(BPHandle = 0x00000003)  returns 0x00 (0000ms, 0707ms total)
T1444 004:445 JLINK_ReadMemU32(0xE000ED30, 0x0001 Items, ...) -- CPU_ReadMem(4 bytes @ 0xE000ED30) - Data: 03 00 00 00  returns 0x01 (0001ms, 0708ms total)
T1444 004:446 JLINK_ReadMemU32(0xE0001028, 0x0001 Items, ...) -- CPU_ReadMem(4 bytes @ 0xE0001028) - Data: 00 00 00 00  returns 0x01 (0001ms, 0709ms total)
T1444 004:447 JLINK_ReadMemU32(0xE0001038, 0x0001 Items, ...) -- CPU_ReadMem(4 bytes @ 0xE0001038) - Data: 00 02 00 00  returns 0x01 (0001ms, 0710ms total)
T1444 004:449 JLINK_ReadMemU32(0xE0001048, 0x0001 Items, ...) -- CPU_ReadMem(4 bytes @ 0xE0001048) - Data: 00 00 00 00  returns 0x01 (0001ms, 0711ms total)
T1444 004:450 JLINK_ReadMemU32(0xE0001058, 0x0001 Items, ...) -- CPU_ReadMem(4 bytes @ 0xE0001058) - Data: 00 00 00 00  returns 0x01 (0001ms, 0712ms total)
T1444 004:451 JLINK_ReadReg(R0)  returns 0x00000048 (0000ms, 0712ms total)
T1444 004:451 JLINK_ReadReg(R1)  returns 0x20000114 (0000ms, 0712ms total)
T1444 004:451 JLINK_ReadReg(R2)  returns 0x00000007 (0000ms, 0712ms total)
T1444 004:451 JLINK_ReadReg(R3)  returns 0x00000002 (0000ms, 0712ms total)
T1444 004:451 JLINK_ReadReg(R4)  returns 0x00000000 (0000ms, 0712ms total)
T1444 004:452 JLINK_ReadReg(R5)  returns 0x20000F50 (0000ms, 0713ms total)
T1444 004:452 JLINK_ReadReg(R6)  returns 0x00000000 (0000ms, 0713ms total)
T1444 004:452 JLINK_ReadReg(R7)  returns 0x00000000 (0000ms, 0713ms total)
T1444 004:452 JLINK_ReadReg(R8)  returns 0x00000000 (0000ms, 0713ms total)
T1444 004:452 JLINK_ReadReg(R9)  returns 0x20000160 (0000ms, 0713ms total)
T1444 004:452 JLINK_ReadReg(R10)  returns 0x0800E614 (0000ms, 0713ms total)
T1444 004:452 JLINK_ReadReg(R11)  returns 0x00000000 (0000ms, 0713ms total)
T1444 004:452 JLINK_ReadReg(R12)  returns 0x20000F90 (0000ms, 0713ms total)
T1444 004:452 JLINK_ReadReg(R13 (SP))  returns 0x200015B0 (0000ms, 0713ms total)
T1444 004:452 JLINK_ReadReg(R14)  returns 0x0800337B (0000ms, 0713ms total)
T1444 004:452 JLINK_ReadReg(R15 (PC))  returns 0x08002FA6 (0000ms, 0713ms total)
T1444 004:452 JLINK_ReadReg(XPSR)  returns 0x01000000 (0000ms, 0713ms total)
T1444 004:453 JLINK_ReadReg(MSP)  returns 0x200015B0 (0000ms, 0714ms total)
T1444 004:453 JLINK_ReadReg(PSP)  returns 0x20001000 (0000ms, 0714ms total)
T1444 004:453 JLINK_ReadReg(CFBP)  returns 0x00000000 (0000ms, 0714ms total)
T1A5C 004:461 JLINK_ReadMemU32(0xE0001004, 0x0001 Items, ...) -- CPU_ReadMem(4 bytes @ 0xE0001004) - Data: 8A 4B 00 00  returns 0x01 (0002ms, 0716ms total)
T1A5C 004:473 JLINK_ReadMem (0x08002FA6, 0x0002 Bytes, ...) -- CPU_ReadMem(64 bytes @ 0x08002F80) -- Updating C cache (64 bytes @ 0x08002F80) -- Read from C cache (2 bytes @ 0x08002FA6) - Data: 00 F0  returns 0x00 (0002ms, 0718ms total)
T1A5C 004:475 JLINK_ReadMem (0x08002FA8, 0x003C Bytes, ...) -- CPU_ReadMem(64 bytes @ 0x08002FC0) -- Updating C cache (64 bytes @ 0x08002FC0) -- Read from C cache (60 bytes @ 0x08002FA8) - Data: 33 F9 81 48 00 68 4F F4 7A 72 B0 FB F2 F1 B1 F1 ...  returns 0x00 (0002ms, 0720ms total)
T1444 006:235 JLINK_SetBPEx(Addr = 0x08002FAA, Type = 0xFFFFFFF2)  returns 0x00000004 (0001ms, 0721ms total)
T1444 006:236 JLINK_SetBPEx(Addr = 0x08002FA0, Type = 0xFFFFFFF2)  returns 0x00000005 (0000ms, 0721ms total)
T1444 006:236 JLINK_Go() -- CPU_WriteMem(4 bytes @ 0xE0002000) -- CPU_WriteMem(4 bytes @ 0xE0002000) -- CPU_WriteMem(4 bytes @ 0xE0002008) (0004ms, 0725ms total)
T1444 006:340 JLINK_IsHalted()  returns TRUE (0005ms, 0730ms total)
T1444 006:345 JLINK_Halt()  returns 0x00 (0000ms, 0725ms total)
T1444 006:345 JLINK_IsHalted()  returns TRUE (0000ms, 0725ms total)
T1444 006:345 JLINK_IsHalted()  returns TRUE (0000ms, 0725ms total)
T1444 006:345 JLINK_IsHalted()  returns TRUE (0000ms, 0725ms total)
T1444 006:345 JLINK_ReadReg(R15 (PC))  returns 0x08002FAA (0000ms, 0725ms total)
T1444 006:345 JLINK_ReadReg(XPSR)  returns 0x41000000 (0000ms, 0725ms total)
T1444 006:345 JLINK_ClrBPEx(BPHandle = 0x00000004)  returns 0x00 (0000ms, 0725ms total)
T1444 006:345 JLINK_ClrBPEx(BPHandle = 0x00000005)  returns 0x00 (0000ms, 0725ms total)
T1444 006:345 JLINK_ReadMemU32(0xE000ED30, 0x0001 Items, ...) -- CPU_ReadMem(4 bytes @ 0xE000ED30) - Data: 03 00 00 00  returns 0x01 (0002ms, 0727ms total)
T1444 006:347 JLINK_ReadMemU32(0xE0001028, 0x0001 Items, ...) -- CPU_ReadMem(4 bytes @ 0xE0001028) - Data: 00 00 00 00  returns 0x01 (0001ms, 0728ms total)
T1444 006:348 JLINK_ReadMemU32(0xE0001038, 0x0001 Items, ...) -- CPU_ReadMem(4 bytes @ 0xE0001038) - Data: 00 02 00 00  returns 0x01 (0002ms, 0730ms total)
T1444 006:350 JLINK_ReadMemU32(0xE0001048, 0x0001 Items, ...) -- CPU_ReadMem(4 bytes @ 0xE0001048) - Data: 00 00 00 00  returns 0x01 (0000ms, 0730ms total)
T1444 006:350 JLINK_ReadMemU32(0xE0001058, 0x0001 Items, ...) -- CPU_ReadMem(4 bytes @ 0xE0001058) - Data: 00 00 00 00  returns 0x01 (0001ms, 0731ms total)
T1444 006:352 JLINK_ReadReg(R0)  returns 0x00000048 (0000ms, 0732ms total)
T1444 006:352 JLINK_ReadReg(R1)  returns 0x2000010C (0000ms, 0732ms total)
T1444 006:352 JLINK_ReadReg(R2)  returns 0x00000009 (0000ms, 0732ms total)
T1444 006:352 JLINK_ReadReg(R3)  returns 0x00000002 (0000ms, 0732ms total)
T1444 006:352 JLINK_ReadReg(R4)  returns 0x00000000 (0000ms, 0732ms total)
T1444 006:352 JLINK_ReadReg(R5)  returns 0x20000F50 (0000ms, 0732ms total)
T1444 006:352 JLINK_ReadReg(R6)  returns 0x00000000 (0000ms, 0732ms total)
T1444 006:352 JLINK_ReadReg(R7)  returns 0x00000000 (0000ms, 0732ms total)
T1444 006:352 JLINK_ReadReg(R8)  returns 0x00000000 (0000ms, 0732ms total)
T1444 006:352 JLINK_ReadReg(R9)  returns 0x20000160 (0000ms, 0732ms total)
T1444 006:352 JLINK_ReadReg(R10)  returns 0x0800E614 (0000ms, 0732ms total)
T1444 006:352 JLINK_ReadReg(R11)  returns 0x00000000 (0000ms, 0732ms total)
T1444 006:352 JLINK_ReadReg(R12)  returns 0x20000F90 (0000ms, 0732ms total)
T1444 006:352 JLINK_ReadReg(R13 (SP))  returns 0x200015B0 (0000ms, 0732ms total)
T1444 006:352 JLINK_ReadReg(R14)  returns 0x0800321B (0001ms, 0733ms total)
T1444 006:353 JLINK_ReadReg(R15 (PC))  returns 0x08002FAA (0000ms, 0733ms total)
T1444 006:353 JLINK_ReadReg(XPSR)  returns 0x41000000 (0000ms, 0733ms total)
T1444 006:353 JLINK_ReadReg(MSP)  returns 0x200015B0 (0000ms, 0733ms total)
T1444 006:353 JLINK_ReadReg(PSP)  returns 0x20001000 (0000ms, 0733ms total)
T1444 006:353 JLINK_ReadReg(CFBP)  returns 0x00000000 (0000ms, 0733ms total)
T1A5C 006:364 JLINK_ReadMemU32(0xE0001004, 0x0001 Items, ...) -- CPU_ReadMem(4 bytes @ 0xE0001004) - Data: 6C 4C 00 00  returns 0x01 (0002ms, 0735ms total)
T1A5C 006:374 JLINK_ReadMem (0x08002FAA, 0x0002 Bytes, ...) -- CPU_ReadMem(64 bytes @ 0x08002F80) -- Updating C cache (64 bytes @ 0x08002F80) -- Read from C cache (2 bytes @ 0x08002FAA) - Data: 81 48  returns 0x00 (0002ms, 0737ms total)
T1A5C 006:376 JLINK_ReadMem (0x08002FAC, 0x003C Bytes, ...) -- CPU_ReadMem(64 bytes @ 0x08002FC0) -- Updating C cache (64 bytes @ 0x08002FC0) -- Read from C cache (60 bytes @ 0x08002FAC) - Data: 00 68 4F F4 7A 72 B0 FB F2 F1 B1 F1 80 7F 00 D3 ...  returns 0x00 (0002ms, 0739ms total)
T1444 013:146 JLINK_Step() -- Read from C cache (2 bytes @ 0x08002FAA) -- CPU_ReadMem(64 bytes @ 0x08003180) -- Updating C cache (64 bytes @ 0x08003180) -- Read from C cache (4 bytes @ 0x080031B0) -- Simulated  returns 0x00 (0003ms, 0742ms total)
T1444 013:149 JLINK_ReadReg(R15 (PC))  returns 0x08002FAC (0000ms, 0742ms total)
T1444 013:149 JLINK_ReadReg(XPSR)  returns 0x41000000 (0000ms, 0742ms total)
T1444 013:149 JLINK_Step() -- Read from C cache (2 bytes @ 0x08002FAC) -- CPU_ReadMem(64 bytes @ 0x20000000) -- Updating C cache (64 bytes @ 0x20000000) -- Read from C cache (4 bytes @ 0x20000000) -- Simulated  returns 0x00 (0001ms, 0743ms total)
T1444 013:150 JLINK_ReadReg(R15 (PC))  returns 0x08002FAE (0000ms, 0743ms total)
T1444 013:150 JLINK_ReadReg(XPSR)  returns 0x41000000 (0000ms, 0743ms total)
T1444 013:150 JLINK_Step() -- Read from C cache (2 bytes @ 0x08002FAE) -- Read from C cache (2 bytes @ 0x08002FB0) -- Simulated  returns 0x00 (0000ms, 0743ms total)
T1444 013:151 JLINK_ReadReg(R15 (PC))  returns 0x08002FB2 (0000ms, 0744ms total)
T1444 013:151 JLINK_ReadReg(XPSR)  returns 0x41000000 (0000ms, 0744ms total)
T1444 013:151 JLINK_Step() -- Read from C cache (2 bytes @ 0x08002FB2) -- Read from C cache (2 bytes @ 0x08002FB4) -- Not simulated -- CPU_WriteMem(4 bytes @ 0xE0002008) -- CPU_WriteMem(4 bytes @ 0xE000200C) -- CPU_WriteMem(4 bytes @ 0xE0001004)  returns 0x00 (0007ms, 0751ms total)
T1444 013:158 JLINK_ReadReg(R15 (PC))  returns 0x08002FB6 (0000ms, 0751ms total)
T1444 013:158 JLINK_ReadReg(XPSR)  returns 0x41000000 (0000ms, 0751ms total)
T1444 013:158 JLINK_SetBPEx(Addr = 0x08003006, Type = 0xFFFFFFF2)  returns 0x00000006 (0000ms, 0751ms total)
T1444 013:158 JLINK_SetBPEx(Addr = 0x08002FA0, Type = 0xFFFFFFF2)  returns 0x00000007 (0000ms, 0751ms total)
T1444 013:158 JLINK_Go() -- CPU_WriteMem(4 bytes @ 0xE0002000) -- CPU_WriteMem(4 bytes @ 0xE0002000) -- CPU_WriteMem(4 bytes @ 0xE0002008) -- CPU_WriteMem(4 bytes @ 0xE000200C) (0003ms, 0754ms total)
T1444 013:262 JLINK_IsHalted()  returns TRUE (0005ms, 0759ms total)
T1444 013:267 JLINK_Halt()  returns 0x00 (0000ms, 0754ms total)
T1444 013:267 JLINK_IsHalted()  returns TRUE (0000ms, 0754ms total)
T1444 013:267 JLINK_IsHalted()  returns TRUE (0000ms, 0754ms total)
T1444 013:267 JLINK_IsHalted()  returns TRUE (0000ms, 0754ms total)
T1444 013:267 JLINK_ReadReg(R15 (PC))  returns 0x08003006 (0000ms, 0754ms total)
T1444 013:267 JLINK_ReadReg(XPSR)  returns 0x61000000 (0000ms, 0754ms total)
T1444 013:267 JLINK_ClrBPEx(BPHandle = 0x00000006)  returns 0x00 (0000ms, 0754ms total)
T1444 013:267 JLINK_ClrBPEx(BPHandle = 0x00000007)  returns 0x00 (0000ms, 0754ms total)
T1444 013:267 JLINK_ReadMemU32(0xE000ED30, 0x0001 Items, ...) -- CPU_ReadMem(4 bytes @ 0xE000ED30) - Data: 03 00 00 00  returns 0x01 (0002ms, 0756ms total)
T1444 013:269 JLINK_ReadMemU32(0xE0001028, 0x0001 Items, ...) -- CPU_ReadMem(4 bytes @ 0xE0001028) - Data: 00 00 00 00  returns 0x01 (0001ms, 0757ms total)
T1444 013:270 JLINK_ReadMemU32(0xE0001038, 0x0001 Items, ...) -- CPU_ReadMem(4 bytes @ 0xE0001038) - Data: 00 02 00 00  returns 0x01 (0001ms, 0758ms total)
T1444 013:271 JLINK_ReadMemU32(0xE0001048, 0x0001 Items, ...) -- CPU_ReadMem(4 bytes @ 0xE0001048) - Data: 00 00 00 00  returns 0x01 (0001ms, 0759ms total)
T1444 013:272 JLINK_ReadMemU32(0xE0001058, 0x0001 Items, ...) -- CPU_ReadMem(4 bytes @ 0xE0001058) - Data: 00 00 00 00  returns 0x01 (0001ms, 0760ms total)
T1444 013:273 JLINK_ReadReg(R0)  returns 0x0000001E (0000ms, 0760ms total)
T1444 013:273 JLINK_ReadReg(R1)  returns 0x08002242 (0000ms, 0760ms total)
T1444 013:273 JLINK_ReadReg(R2)  returns 0x08002243 (0000ms, 0760ms total)
T1444 013:273 JLINK_ReadReg(R3)  returns 0x40013804 (0000ms, 0760ms total)
T1444 013:274 JLINK_ReadReg(R4)  returns 0x0000000B (0000ms, 0761ms total)
T1444 013:274 JLINK_ReadReg(R5)  returns 0x000000F0 (0000ms, 0761ms total)
T1444 013:274 JLINK_ReadReg(R6)  returns 0x00000000 (0000ms, 0761ms total)
T1444 013:274 JLINK_ReadReg(R7)  returns 0x00000000 (0000ms, 0761ms total)
T1444 013:274 JLINK_ReadReg(R8)  returns 0x00000000 (0000ms, 0761ms total)
T1444 013:274 JLINK_ReadReg(R9)  returns 0x20000160 (0000ms, 0761ms total)
T1444 013:274 JLINK_ReadReg(R10)  returns 0x0800E614 (0000ms, 0761ms total)
T1444 013:274 JLINK_ReadReg(R11)  returns 0x00000000 (0000ms, 0761ms total)
T1444 013:274 JLINK_ReadReg(R12)  returns 0x20000F90 (0000ms, 0761ms total)
T1444 013:274 JLINK_ReadReg(R13 (SP))  returns 0x200015B0 (0000ms, 0761ms total)
T1444 013:274 JLINK_ReadReg(R14)  returns 0x0800A66D (0000ms, 0761ms total)
T1444 013:274 JLINK_ReadReg(R15 (PC))  returns 0x08003006 (0000ms, 0761ms total)
T1444 013:274 JLINK_ReadReg(XPSR)  returns 0x61000000 (0000ms, 0761ms total)
T1444 013:274 JLINK_ReadReg(MSP)  returns 0x200015B0 (0000ms, 0761ms total)
T1444 013:274 JLINK_ReadReg(PSP)  returns 0x20001000 (0001ms, 0762ms total)
T1444 013:275 JLINK_ReadReg(CFBP)  returns 0x00000000 (0000ms, 0762ms total)
T1A5C 013:282 JLINK_ReadMemU32(0xE0001004, 0x0001 Items, ...) -- CPU_ReadMem(4 bytes @ 0xE0001004) - Data: 52 62 06 00  returns 0x01 (0001ms, 0763ms total)
T1A5C 013:294 JLINK_ReadMem (0x08003006, 0x0002 Bytes, ...) -- CPU_ReadMem(64 bytes @ 0x08003000) -- Updating C cache (64 bytes @ 0x08003000) -- Read from C cache (2 bytes @ 0x08003006) - Data: 00 F0  returns 0x00 (0001ms, 0764ms total)
T1A5C 013:295 JLINK_ReadMem (0x08003008, 0x003C Bytes, ...) -- CPU_ReadMem(64 bytes @ 0x08003040) -- Updating C cache (64 bytes @ 0x08003040) -- Read from C cache (60 bytes @ 0x08003008) - Data: 4D F9 FE F7 97 FE 02 F0 B6 FF FD F7 55 FA FF F7 ...  returns 0x00 (0002ms, 0766ms total)
T1444 016:314 JLINK_SetBPEx(Addr = 0x0800300A, Type = 0xFFFFFFF2)  returns 0x00000008 (0001ms, 0767ms total)
T1444 016:315 JLINK_SetBPEx(Addr = 0x08002FA0, Type = 0xFFFFFFF2)  returns 0x00000009 (0000ms, 0767ms total)
T1444 016:315 JLINK_Go() -- CPU_WriteMem(4 bytes @ 0xE0002000) -- CPU_WriteMem(4 bytes @ 0xE0002000) -- CPU_WriteMem(4 bytes @ 0xE0002008) (0003ms, 0770ms total)
T1444 016:420 JLINK_IsHalted()  returns TRUE (0005ms, 0775ms total)
T1444 016:425 JLINK_Halt()  returns 0x00 (0000ms, 0770ms total)
T1444 016:425 JLINK_IsHalted()  returns TRUE (0000ms, 0770ms total)
T1444 016:425 JLINK_IsHalted()  returns TRUE (0000ms, 0770ms total)
T1444 016:425 JLINK_IsHalted()  returns TRUE (0000ms, 0770ms total)
T1444 016:425 JLINK_ReadReg(R15 (PC))  returns 0x0800300A (0000ms, 0770ms total)
T1444 016:425 JLINK_ReadReg(XPSR)  returns 0x01000000 (0000ms, 0770ms total)
T1444 016:425 JLINK_ClrBPEx(BPHandle = 0x00000008)  returns 0x00 (0000ms, 0770ms total)
T1444 016:425 JLINK_ClrBPEx(BPHandle = 0x00000009)  returns 0x00 (0000ms, 0770ms total)
T1444 016:425 JLINK_ReadMemU32(0xE000ED30, 0x0001 Items, ...) -- CPU_ReadMem(4 bytes @ 0xE000ED30) - Data: 03 00 00 00  returns 0x01 (0002ms, 0772ms total)
T1444 016:427 JLINK_ReadMemU32(0xE0001028, 0x0001 Items, ...) -- CPU_ReadMem(4 bytes @ 0xE0001028) - Data: 00 00 00 00  returns 0x01 (0000ms, 0772ms total)
T1444 016:427 JLINK_ReadMemU32(0xE0001038, 0x0001 Items, ...) -- CPU_ReadMem(4 bytes @ 0xE0001038) - Data: 00 02 00 00  returns 0x01 (0001ms, 0773ms total)
T1444 016:428 JLINK_ReadMemU32(0xE0001048, 0x0001 Items, ...) -- CPU_ReadMem(4 bytes @ 0xE0001048) - Data: 00 00 00 00  returns 0x01 (0001ms, 0774ms total)
T1444 016:429 JLINK_ReadMemU32(0xE0001058, 0x0001 Items, ...) -- CPU_ReadMem(4 bytes @ 0xE0001058) - Data: 00 00 00 00  returns 0x01 (0002ms, 0776ms total)
T1444 016:431 JLINK_ReadReg(R0)  returns 0x200015A0 (0000ms, 0776ms total)
T1444 016:431 JLINK_ReadReg(R1)  returns 0x00000000 (0000ms, 0776ms total)
T1444 016:431 JLINK_ReadReg(R2)  returns 0x00000003 (0000ms, 0776ms total)
T1444 016:431 JLINK_ReadReg(R3)  returns 0x01000025 (0000ms, 0776ms total)
T1444 016:431 JLINK_ReadReg(R4)  returns 0x0000000B (0000ms, 0776ms total)
T1444 016:431 JLINK_ReadReg(R5)  returns 0x000000F0 (0000ms, 0776ms total)
T1444 016:431 JLINK_ReadReg(R6)  returns 0x00000000 (0000ms, 0776ms total)
T1444 016:431 JLINK_ReadReg(R7)  returns 0x00000000 (0001ms, 0777ms total)
T1444 016:432 JLINK_ReadReg(R8)  returns 0x00000000 (0000ms, 0777ms total)
T1444 016:432 JLINK_ReadReg(R9)  returns 0x20000160 (0000ms, 0777ms total)
T1444 016:432 JLINK_ReadReg(R10)  returns 0x0800E614 (0000ms, 0777ms total)
T1444 016:432 JLINK_ReadReg(R11)  returns 0x00000000 (0000ms, 0777ms total)
T1444 016:432 JLINK_ReadReg(R12)  returns 0x20000F90 (0000ms, 0777ms total)
T1444 016:432 JLINK_ReadReg(R13 (SP))  returns 0x200015B0 (0000ms, 0777ms total)
T1444 016:432 JLINK_ReadReg(R14)  returns 0x08001FDD (0000ms, 0777ms total)
T1444 016:432 JLINK_ReadReg(R15 (PC))  returns 0x0800300A (0000ms, 0777ms total)
T1444 016:432 JLINK_ReadReg(XPSR)  returns 0x01000000 (0000ms, 0777ms total)
T1444 016:432 JLINK_ReadReg(MSP)  returns 0x200015B0 (0000ms, 0777ms total)
T1444 016:432 JLINK_ReadReg(PSP)  returns 0x20001000 (0000ms, 0777ms total)
T1444 016:432 JLINK_ReadReg(CFBP)  returns 0x00000000 (0000ms, 0777ms total)
T1A5C 016:440 JLINK_ReadMemU32(0xE0001004, 0x0001 Items, ...) -- CPU_ReadMem(4 bytes @ 0xE0001004) - Data: 8B 63 06 00  returns 0x01 (0001ms, 0778ms total)
T1A5C 016:451 JLINK_ReadMem (0x0800300A, 0x0002 Bytes, ...) -- CPU_ReadMem(64 bytes @ 0x08003000) -- Updating C cache (64 bytes @ 0x08003000) -- Read from C cache (2 bytes @ 0x0800300A) - Data: FE F7  returns 0x00 (0002ms, 0780ms total)
T1A5C 016:453 JLINK_ReadMem (0x0800300C, 0x003C Bytes, ...) -- CPU_ReadMem(64 bytes @ 0x08003040) -- Updating C cache (64 bytes @ 0x08003040) -- Read from C cache (60 bytes @ 0x0800300C) - Data: 97 FE 02 F0 B6 FF FD F7 55 FA FF F7 2D FB FE F7 ...  returns 0x00 (0001ms, 0781ms total)
T1A5C 052:114 JLINK_ReadMem (0x08001D3E, 0x0002 Bytes, ...) -- CPU_ReadMem(64 bytes @ 0x08001D00) -- Updating C cache (64 bytes @ 0x08001D00) -- Read from C cache (2 bytes @ 0x08001D3E) - Data: 8B 48  returns 0x00 (0003ms, 0784ms total)
T1A5C 052:117 JLINK_ReadMem (0x08001D40, 0x003C Bytes, ...) -- CPU_ReadMem(64 bytes @ 0x08001D40) -- Updating C cache (64 bytes @ 0x08001D40) -- Read from C cache (60 bytes @ 0x08001D40) - Data: 8B 49 48 60 8B 48 48 60 8B A0 08 F0 25 F8 10 BD ...  returns 0x00 (0002ms, 0786ms total)
T1A5C 053:924 JLINK_ReadMem (0x08001D3C, 0x003C Bytes, ...) -- Read from C cache (60 bytes @ 0x08001D3C) - Data: 10 B5 8B 48 8B 49 48 60 8B 48 48 60 8B A0 08 F0 ...  returns 0x00 (0001ms, 0787ms total)
T1444 055:387 JLINK_SetBPEx(Addr = 0x0800300E, Type = 0xFFFFFFF2)  returns 0x0000000A (0000ms, 0787ms total)
T1444 055:387 JLINK_SetBPEx(Addr = 0x08002FA0, Type = 0xFFFFFFF2)  returns 0x0000000B (0000ms, 0787ms total)
T1444 055:387 JLINK_Go() -- CPU_WriteMem(4 bytes @ 0xE0002000) -- CPU_WriteMem(4 bytes @ 0xE0002000) -- CPU_WriteMem(4 bytes @ 0xE0002008) (0004ms, 0791ms total)
T1444 055:492 JLINK_IsHalted()  returns TRUE (0005ms, 0796ms total)
T1444 055:497 JLINK_Halt()  returns 0x00 (0000ms, 0791ms total)
T1444 055:497 JLINK_IsHalted()  returns TRUE (0000ms, 0791ms total)
T1444 055:497 JLINK_IsHalted()  returns TRUE (0000ms, 0791ms total)
T1444 055:497 JLINK_IsHalted()  returns TRUE (0000ms, 0791ms total)
T1444 055:497 JLINK_ReadReg(R15 (PC))  returns 0x0800300E (0000ms, 0791ms total)
T1444 055:497 JLINK_ReadReg(XPSR)  returns 0x61000000 (0000ms, 0791ms total)
T1444 055:497 JLINK_ClrBPEx(BPHandle = 0x0000000A)  returns 0x00 (0000ms, 0791ms total)
T1444 055:497 JLINK_ClrBPEx(BPHandle = 0x0000000B)  returns 0x00 (0000ms, 0791ms total)
T1444 055:497 JLINK_ReadMemU32(0xE000ED30, 0x0001 Items, ...) -- CPU_ReadMem(4 bytes @ 0xE000ED30) - Data: 03 00 00 00  returns 0x01 (0001ms, 0792ms total)
T1444 055:498 JLINK_ReadMemU32(0xE0001028, 0x0001 Items, ...) -- CPU_ReadMem(4 bytes @ 0xE0001028) - Data: 00 00 00 00  returns 0x01 (0002ms, 0794ms total)
T1444 055:500 JLINK_ReadMemU32(0xE0001038, 0x0001 Items, ...) -- CPU_ReadMem(4 bytes @ 0xE0001038) - Data: 00 02 00 00  returns 0x01 (0001ms, 0795ms total)
T1444 055:501 JLINK_ReadMemU32(0xE0001048, 0x0001 Items, ...) -- CPU_ReadMem(4 bytes @ 0xE0001048) - Data: 00 00 00 00  returns 0x01 (0001ms, 0796ms total)
T1444 055:502 JLINK_ReadMemU32(0xE0001058, 0x0001 Items, ...) -- CPU_ReadMem(4 bytes @ 0xE0001058) - Data: 00 00 00 00  returns 0x01 (0001ms, 0797ms total)
T1444 055:503 JLINK_ReadReg(R0)  returns 0x0000001F (0000ms, 0797ms total)
T1444 055:503 JLINK_ReadReg(R1)  returns 0x08001F97 (0000ms, 0797ms total)
T1444 055:503 JLINK_ReadReg(R2)  returns 0x08001F98 (0000ms, 0797ms total)
T1444 055:503 JLINK_ReadReg(R3)  returns 0x40013804 (0000ms, 0797ms total)
T1444 055:503 JLINK_ReadReg(R4)  returns 0x0000000B (0000ms, 0797ms total)
T1444 055:503 JLINK_ReadReg(R5)  returns 0x000000F0 (0000ms, 0797ms total)
T1444 055:503 JLINK_ReadReg(R6)  returns 0x00000000 (0000ms, 0797ms total)
T1444 055:503 JLINK_ReadReg(R7)  returns 0x00000000 (0001ms, 0798ms total)
T1444 055:504 JLINK_ReadReg(R8)  returns 0x00000000 (0000ms, 0798ms total)
T1444 055:504 JLINK_ReadReg(R9)  returns 0x20000160 (0000ms, 0798ms total)
T1444 055:504 JLINK_ReadReg(R10)  returns 0x0800E614 (0000ms, 0798ms total)
T1444 055:504 JLINK_ReadReg(R11)  returns 0x00000000 (0000ms, 0798ms total)
T1444 055:504 JLINK_ReadReg(R12)  returns 0x20000F90 (0000ms, 0798ms total)
T1444 055:504 JLINK_ReadReg(R13 (SP))  returns 0x200015B0 (0000ms, 0798ms total)
T1444 055:504 JLINK_ReadReg(R14)  returns 0x0800A66D (0000ms, 0798ms total)
T1444 055:504 JLINK_ReadReg(R15 (PC))  returns 0x0800300E (0000ms, 0798ms total)
T1444 055:504 JLINK_ReadReg(XPSR)  returns 0x61000000 (0000ms, 0798ms total)
T1444 055:504 JLINK_ReadReg(MSP)  returns 0x200015B0 (0001ms, 0799ms total)
T1444 055:505 JLINK_ReadReg(PSP)  returns 0x20001000 (0000ms, 0799ms total)
T1444 055:505 JLINK_ReadReg(CFBP)  returns 0x00000000 (0000ms, 0799ms total)
T1A5C 055:521 JLINK_ReadMemU32(0xE0001004, 0x0001 Items, ...) -- CPU_ReadMem(4 bytes @ 0xE0001004) - Data: 39 8A 09 00  returns 0x01 (0001ms, 0800ms total)
T1A5C 055:528 JLINK_ReadMem (0x0800300E, 0x0002 Bytes, ...) -- CPU_ReadMem(64 bytes @ 0x08003000) -- Updating C cache (64 bytes @ 0x08003000) -- Read from C cache (2 bytes @ 0x0800300E) - Data: 02 F0  returns 0x00 (0002ms, 0802ms total)
T1A5C 055:530 JLINK_ReadMem (0x08003010, 0x003C Bytes, ...) -- CPU_ReadMem(64 bytes @ 0x08003040) -- Updating C cache (64 bytes @ 0x08003040) -- Read from C cache (60 bytes @ 0x08003010) - Data: B6 FF FD F7 55 FA FF F7 2D FB FE F7 5A FC FF F7 ...  returns 0x00 (0001ms, 0803ms total)
T1A5C 055:552 JLINK_ReadMem (0x0800300A, 0x0002 Bytes, ...) -- Read from C cache (2 bytes @ 0x0800300A) - Data: FE F7  returns 0x00 (0001ms, 0804ms total)
T1A5C 055:553 JLINK_ReadMem (0x0800300C, 0x003C Bytes, ...) -- Read from C cache (60 bytes @ 0x0800300C) - Data: 97 FE 02 F0 B6 FF FD F7 55 FA FF F7 2D FB FE F7 ...  returns 0x00 (0000ms, 0804ms total)
T1A5C 071:692 JLINK_ReadMem (0x08005F80, 0x003C Bytes, ...) -- CPU_ReadMem(64 bytes @ 0x08005F80) -- Updating C cache (64 bytes @ 0x08005F80) -- Read from C cache (60 bytes @ 0x08005F80) - Data: FF F7 9E FE 20 B1 FF F7 B2 FE FF F7 C0 FE 0C E0 ...  returns 0x00 (0002ms, 0806ms total)
T1A5C 075:616 JLINK_ReadMem (0x20000CE0, 0x0004 Bytes, ...) -- CPU_ReadMem(64 bytes @ 0x20000CC0) -- Updating C cache (64 bytes @ 0x20000CC0) -- Read from C cache (4 bytes @ 0x20000CE0) - Data: 00 00 00 00  returns 0x00 (0003ms, 0810ms total)
T1A5C 075:619 JLINK_ReadMem (0x20000CE4, 0x0004 Bytes, ...) -- Read from C cache (4 bytes @ 0x20000CE4) - Data: 00 00 00 00  returns 0x00 (0000ms, 0810ms total)
T1A5C 075:619 JLINK_ReadMem (0x20000CE8, 0x0004 Bytes, ...) -- Read from C cache (4 bytes @ 0x20000CE8) - Data: 00 00 00 00  returns 0x00 (0000ms, 0810ms total)
T1A5C 075:619 JLINK_ReadMem (0x20000CEC, 0x0004 Bytes, ...) -- Read from C cache (4 bytes @ 0x20000CEC) - Data: 00 00 00 00  returns 0x00 (0000ms, 0810ms total)
T1A5C 075:619 JLINK_ReadMem (0x20000CF0, 0x0004 Bytes, ...) -- Read from C cache (4 bytes @ 0x20000CF0) - Data: 00 00 00 00  returns 0x00 (0000ms, 0810ms total)
T1A5C 075:619 JLINK_ReadMem (0x20000CF4, 0x0004 Bytes, ...) -- Read from C cache (4 bytes @ 0x20000CF4) - Data: 00 00 00 00  returns 0x00 (0000ms, 0810ms total)
T1A5C 075:619 JLINK_ReadMem (0x20000CF8, 0x0004 Bytes, ...) -- Read from C cache (4 bytes @ 0x20000CF8) - Data: 00 00 00 00  returns 0x00 (0000ms, 0810ms total)
T1A5C 075:619 JLINK_ReadMem (0x20000CFC, 0x0004 Bytes, ...) -- Read from C cache (4 bytes @ 0x20000CFC) - Data: 00 00 00 00  returns 0x00 (0001ms, 0811ms total)
T1A5C 075:620 JLINK_ReadMem (0x20000D00, 0x0004 Bytes, ...) -- CPU_ReadMem(64 bytes @ 0x20000D00) -- Updating C cache (64 bytes @ 0x20000D00) -- Read from C cache (4 bytes @ 0x20000D00) - Data: 00 00 00 00  returns 0x00 (0002ms, 0813ms total)
T1A5C 075:622 JLINK_ReadMem (0x20000D04, 0x0004 Bytes, ...) -- Read from C cache (4 bytes @ 0x20000D04) - Data: 00 00 00 00  returns 0x00 (0000ms, 0813ms total)
T1A5C 075:622 JLINK_ReadMem (0x20000D08, 0x0004 Bytes, ...) -- Read from C cache (4 bytes @ 0x20000D08) - Data: 00 00 00 00  returns 0x00 (0000ms, 0813ms total)
T1A5C 075:622 JLINK_ReadMem (0x20000D0C, 0x0004 Bytes, ...) -- Read from C cache (4 bytes @ 0x20000D0C) - Data: 00 00 00 00  returns 0x00 (0000ms, 0813ms total)
T1A5C 075:622 JLINK_ReadMem (0x20000D10, 0x0004 Bytes, ...) -- Read from C cache (4 bytes @ 0x20000D10) - Data: 00 00 00 00  returns 0x00 (0000ms, 0813ms total)
T1A5C 075:622 JLINK_ReadMem (0x20000D14, 0x0004 Bytes, ...) -- Read from C cache (4 bytes @ 0x20000D14) - Data: 00 00 00 00  returns 0x00 (0000ms, 0813ms total)
T1A5C 075:622 JLINK_ReadMem (0x20000D18, 0x0004 Bytes, ...) -- Read from C cache (4 bytes @ 0x20000D18) - Data: 00 00 00 00  returns 0x00 (0000ms, 0813ms total)
T1A5C 075:622 JLINK_ReadMem (0x20000D1C, 0x0004 Bytes, ...) -- Read from C cache (4 bytes @ 0x20000D1C) - Data: 00 00 00 00  returns 0x00 (0000ms, 0813ms total)
T1A5C 075:622 JLINK_ReadMem (0x20000D20, 0x0004 Bytes, ...) -- Read from C cache (4 bytes @ 0x20000D20) - Data: 00 00 00 00  returns 0x00 (0001ms, 0814ms total)
T1A5C 075:623 JLINK_ReadMem (0x20000D24, 0x0004 Bytes, ...) -- Read from C cache (4 bytes @ 0x20000D24) - Data: 00 00 00 00  returns 0x00 (0000ms, 0814ms total)
T1A5C 075:623 JLINK_ReadMem (0x20000D28, 0x0004 Bytes, ...) -- Read from C cache (4 bytes @ 0x20000D28) - Data: 00 00 00 00  returns 0x00 (0000ms, 0814ms total)
T1A5C 075:623 JLINK_ReadMem (0x20000D2C, 0x0004 Bytes, ...) -- Read from C cache (4 bytes @ 0x20000D2C) - Data: 00 00 00 00  returns 0x00 (0000ms, 0814ms total)
T1A5C 075:623 JLINK_ReadMem (0x20000D30, 0x0004 Bytes, ...) -- Read from C cache (4 bytes @ 0x20000D30) - Data: 00 00 00 00  returns 0x00 (0000ms, 0814ms total)
T1A5C 075:623 JLINK_ReadMem (0x20000D34, 0x0004 Bytes, ...) -- Read from C cache (4 bytes @ 0x20000D34) - Data: 00 00 00 00  returns 0x00 (0000ms, 0814ms total)
T1A5C 075:623 JLINK_ReadMem (0x20000D38, 0x0004 Bytes, ...) -- Read from C cache (4 bytes @ 0x20000D38) - Data: 00 00 00 00  returns 0x00 (0000ms, 0814ms total)
T1A5C 075:623 JLINK_ReadMem (0x20000D3C, 0x0004 Bytes, ...) -- Read from C cache (4 bytes @ 0x20000D3C) - Data: 00 00 00 00  returns 0x00 (0000ms, 0814ms total)
T1A5C 075:623 JLINK_ReadMem (0x20000D40, 0x0004 Bytes, ...) -- CPU_ReadMem(64 bytes @ 0x20000D40) -- Updating C cache (64 bytes @ 0x20000D40) -- Read from C cache (4 bytes @ 0x20000D40) - Data: 00 00 00 00  returns 0x00 (0002ms, 0816ms total)
T1A5C 075:625 JLINK_ReadMem (0x20000D44, 0x0004 Bytes, ...) -- Read from C cache (4 bytes @ 0x20000D44) - Data: 00 00 00 00  returns 0x00 (0000ms, 0816ms total)
T1A5C 075:625 JLINK_ReadMem (0x20000D48, 0x0004 Bytes, ...) -- Read from C cache (4 bytes @ 0x20000D48) - Data: 00 00 00 00  returns 0x00 (0000ms, 0816ms total)
T1A5C 075:625 JLINK_ReadMem (0x20000D4C, 0x0004 Bytes, ...) -- Read from C cache (4 bytes @ 0x20000D4C) - Data: 00 00 00 00  returns 0x00 (0001ms, 0817ms total)
T1A5C 075:626 JLINK_ReadMem (0x20000D50, 0x0004 Bytes, ...) -- Read from C cache (4 bytes @ 0x20000D50) - Data: 00 00 00 00  returns 0x00 (0000ms, 0817ms total)
T1A5C 075:626 JLINK_ReadMem (0x20000D54, 0x0004 Bytes, ...) -- Read from C cache (4 bytes @ 0x20000D54) - Data: 00 00 00 00  returns 0x00 (0000ms, 0817ms total)
T1A5C 075:626 JLINK_ReadMem (0x20000D58, 0x0004 Bytes, ...) -- Read from C cache (4 bytes @ 0x20000D58) - Data: 00 00 00 00  returns 0x00 (0000ms, 0817ms total)
T1A5C 075:626 JLINK_ReadMem (0x20000D5C, 0x0004 Bytes, ...) -- Read from C cache (4 bytes @ 0x20000D5C) - Data: 00 00 00 00  returns 0x00 (0000ms, 0817ms total)
T1A5C 075:626 JLINK_ReadMem (0x20000D60, 0x0004 Bytes, ...) -- Read from C cache (4 bytes @ 0x20000D60) - Data: 00 00 00 00  returns 0x00 (0000ms, 0817ms total)
T1A5C 075:626 JLINK_ReadMem (0x20000D64, 0x0004 Bytes, ...) -- Read from C cache (4 bytes @ 0x20000D64) - Data: 00 00 00 00  returns 0x00 (0000ms, 0817ms total)
T1A5C 075:626 JLINK_ReadMem (0x20000D68, 0x0004 Bytes, ...) -- Read from C cache (4 bytes @ 0x20000D68) - Data: 00 00 00 00  returns 0x00 (0000ms, 0817ms total)
T1A5C 075:626 JLINK_ReadMem (0x20000D6C, 0x0004 Bytes, ...) -- Read from C cache (4 bytes @ 0x20000D6C) - Data: 00 00 00 00  returns 0x00 (0001ms, 0818ms total)
T1A5C 075:627 JLINK_ReadMem (0x20000D70, 0x0004 Bytes, ...) -- Read from C cache (4 bytes @ 0x20000D70) - Data: 00 00 00 00  returns 0x00 (0000ms, 0818ms total)
T1A5C 075:627 JLINK_ReadMem (0x20000D74, 0x0004 Bytes, ...) -- Read from C cache (4 bytes @ 0x20000D74) - Data: 00 00 00 00  returns 0x00 (0000ms, 0818ms total)
T1A5C 075:627 JLINK_ReadMem (0x20000D78, 0x0004 Bytes, ...) -- Read from C cache (4 bytes @ 0x20000D78) - Data: 00 00 00 00  returns 0x00 (0000ms, 0818ms total)
T1A5C 075:627 JLINK_ReadMem (0x20000D7C, 0x0004 Bytes, ...) -- Read from C cache (4 bytes @ 0x20000D7C) - Data: 00 00 00 00  returns 0x00 (0000ms, 0818ms total)
T1A5C 075:627 JLINK_ReadMem (0x20000D80, 0x0004 Bytes, ...) -- CPU_ReadMem(64 bytes @ 0x20000D80) -- Updating C cache (64 bytes @ 0x20000D80) -- Read from C cache (4 bytes @ 0x20000D80) - Data: 00 00 00 00  returns 0x00 (0002ms, 0820ms total)
T1A5C 082:071 JLINK_ReadMem (0x20000EEC, 0x0004 Bytes, ...) -- CPU_ReadMem(64 bytes @ 0x20000EC0) -- Updating C cache (64 bytes @ 0x20000EC0) -- Read from C cache (4 bytes @ 0x20000EEC) - Data: 00 00 00 00  returns 0x00 (0003ms, 0823ms total)
T1A5C 082:074 JLINK_ReadMem (0x20000EF0, 0x0004 Bytes, ...) -- Read from C cache (4 bytes @ 0x20000EF0) - Data: 00 00 00 00  returns 0x00 (0000ms, 0823ms total)
T1A5C 082:074 JLINK_ReadMem (0x20000EF4, 0x0004 Bytes, ...) -- Read from C cache (4 bytes @ 0x20000EF4) - Data: 00 00 00 00  returns 0x00 (0000ms, 0823ms total)
T1A5C 082:074 JLINK_ReadMem (0x20000EF8, 0x0004 Bytes, ...) -- Read from C cache (4 bytes @ 0x20000EF8) - Data: 00 00 00 00  returns 0x00 (0000ms, 0823ms total)
T1A5C 082:074 JLINK_ReadMem (0x20000EFC, 0x0004 Bytes, ...) -- Read from C cache (4 bytes @ 0x20000EFC) - Data: 00 00 00 00  returns 0x00 (0000ms, 0823ms total)
T1A5C 082:074 JLINK_ReadMem (0x20000F00, 0x0004 Bytes, ...) -- CPU_ReadMem(64 bytes @ 0x20000F00) -- Updating C cache (64 bytes @ 0x20000F00) -- Read from C cache (4 bytes @ 0x20000F00) - Data: 00 00 00 00  returns 0x00 (0002ms, 0825ms total)
T1A5C 082:076 JLINK_ReadMem (0x20000F04, 0x0004 Bytes, ...) -- Read from C cache (4 bytes @ 0x20000F04) - Data: 00 00 00 00  returns 0x00 (0000ms, 0825ms total)
T1A5C 082:076 JLINK_ReadMem (0x20000F08, 0x0004 Bytes, ...) -- Read from C cache (4 bytes @ 0x20000F08) - Data: 00 00 00 00  returns 0x00 (0000ms, 0825ms total)
T1A5C 082:076 JLINK_ReadMem (0x20000F0C, 0x0004 Bytes, ...) -- Read from C cache (4 bytes @ 0x20000F0C) - Data: 00 00 00 00  returns 0x00 (0000ms, 0825ms total)
T1A5C 082:076 JLINK_ReadMem (0x20000F10, 0x0004 Bytes, ...) -- Read from C cache (4 bytes @ 0x20000F10) - Data: 00 00 00 00  returns 0x00 (0000ms, 0825ms total)
T1A5C 082:076 JLINK_ReadMem (0x20000F14, 0x0004 Bytes, ...) -- Read from C cache (4 bytes @ 0x20000F14) - Data: 00 00 00 00  returns 0x00 (0001ms, 0826ms total)
T1A5C 082:077 JLINK_ReadMem (0x20000F18, 0x0004 Bytes, ...) -- Read from C cache (4 bytes @ 0x20000F18) - Data: 00 00 00 00  returns 0x00 (0000ms, 0826ms total)
T1444 087:825 JLINK_SetBPEx(Addr = 0x08003012, Type = 0xFFFFFFF2)  returns 0x0000000C (0000ms, 0826ms total)
T1444 087:825 JLINK_SetBPEx(Addr = 0x08002FA0, Type = 0xFFFFFFF2)  returns 0x0000000D (0000ms, 0826ms total)
T1444 087:825 JLINK_Go() -- CPU_WriteMem(4 bytes @ 0xE0002000) -- CPU_WriteMem(4 bytes @ 0xE0002000) -- CPU_WriteMem(4 bytes @ 0xE0002008) (0004ms, 0830ms total)
T1444 087:931 JLINK_IsHalted()  returns TRUE (0004ms, 0834ms total)
T1444 087:935 JLINK_Halt()  returns 0x00 (0000ms, 0830ms total)
T1444 087:935 JLINK_IsHalted()  returns TRUE (0000ms, 0830ms total)
T1444 087:935 JLINK_IsHalted()  returns TRUE (0000ms, 0830ms total)
T1444 087:935 JLINK_IsHalted()  returns TRUE (0000ms, 0830ms total)
T1444 087:935 JLINK_ReadReg(R15 (PC))  returns 0x08003012 (0000ms, 0830ms total)
T1444 087:935 JLINK_ReadReg(XPSR)  returns 0x21000000 (0000ms, 0830ms total)
T1444 087:935 JLINK_ClrBPEx(BPHandle = 0x0000000C)  returns 0x00 (0000ms, 0830ms total)
T1444 087:935 JLINK_ClrBPEx(BPHandle = 0x0000000D)  returns 0x00 (0000ms, 0830ms total)
T1444 087:935 JLINK_ReadMemU32(0xE000ED30, 0x0001 Items, ...) -- CPU_ReadMem(4 bytes @ 0xE000ED30) - Data: 03 00 00 00  returns 0x01 (0001ms, 0831ms total)
T1444 087:936 JLINK_ReadMemU32(0xE0001028, 0x0001 Items, ...) -- CPU_ReadMem(4 bytes @ 0xE0001028) - Data: 00 00 00 00  returns 0x01 (0001ms, 0832ms total)
T1444 087:937 JLINK_ReadMemU32(0xE0001038, 0x0001 Items, ...) -- CPU_ReadMem(4 bytes @ 0xE0001038) - Data: 00 02 00 00  returns 0x01 (0000ms, 0832ms total)
T1444 087:937 JLINK_ReadMemU32(0xE0001048, 0x0001 Items, ...) -- CPU_ReadMem(4 bytes @ 0xE0001048) - Data: 00 00 00 00  returns 0x01 (0001ms, 0833ms total)
T1444 087:938 JLINK_ReadMemU32(0xE0001058, 0x0001 Items, ...) -- CPU_ReadMem(4 bytes @ 0xE0001058) - Data: 00 00 00 00  returns 0x01 (0001ms, 0834ms total)
T1444 087:939 JLINK_ReadReg(R0)  returns 0x00000000 (0000ms, 0834ms total)
T1444 087:939 JLINK_ReadReg(R1)  returns 0x200003AA (0000ms, 0834ms total)
T1444 087:939 JLINK_ReadReg(R2)  returns 0x0000009E (0000ms, 0834ms total)
T1444 087:939 JLINK_ReadReg(R3)  returns 0x80000000 (0000ms, 0834ms total)
T1444 087:939 JLINK_ReadReg(R4)  returns 0x0000000B (0000ms, 0834ms total)
T1444 087:939 JLINK_ReadReg(R5)  returns 0x000000F0 (0000ms, 0834ms total)
T1444 087:939 JLINK_ReadReg(R6)  returns 0x00000000 (0000ms, 0834ms total)
T1444 087:939 JLINK_ReadReg(R7)  returns 0x00000000 (0000ms, 0834ms total)
T1444 087:939 JLINK_ReadReg(R8)  returns 0x00000000 (0000ms, 0834ms total)
T1444 087:939 JLINK_ReadReg(R9)  returns 0x20000160 (0000ms, 0834ms total)
T1444 087:939 JLINK_ReadReg(R10)  returns 0x0800E614 (0000ms, 0834ms total)
T1444 087:939 JLINK_ReadReg(R11)  returns 0x00000000 (0000ms, 0834ms total)
T1444 087:939 JLINK_ReadReg(R12)  returns 0x00000000 (0000ms, 0834ms total)
T1444 087:939 JLINK_ReadReg(R13 (SP))  returns 0x200015B0 (0000ms, 0834ms total)
T1444 087:939 JLINK_ReadReg(R14)  returns 0x08005DE9 (0000ms, 0834ms total)
T1444 087:939 JLINK_ReadReg(R15 (PC))  returns 0x08003012 (0000ms, 0834ms total)
T1444 087:939 JLINK_ReadReg(XPSR)  returns 0x21000000 (0000ms, 0834ms total)
T1444 087:939 JLINK_ReadReg(MSP)  returns 0x200015B0 (0000ms, 0834ms total)
T1444 087:939 JLINK_ReadReg(PSP)  returns 0x20001000 (0000ms, 0834ms total)
T1444 087:939 JLINK_ReadReg(CFBP)  returns 0x00000000 (0000ms, 0834ms total)
T1A5C 087:942 JLINK_ReadMemU32(0xE0001004, 0x0001 Items, ...) -- CPU_ReadMem(4 bytes @ 0xE0001004) - Data: AB DF 13 00  returns 0x01 (0002ms, 0836ms total)
T1444 089:580 JLINK_ReadMem (0x08003012, 0x0002 Bytes, ...) -- CPU_ReadMem(64 bytes @ 0x08003000) -- Updating C cache (64 bytes @ 0x08003000) -- Read from C cache (2 bytes @ 0x08003012) - Data: FD F7  returns 0x00 (0002ms, 0838ms total)
